
T133C 000:275 SEGGER J-Link V4.98e Log File (0000ms, 0260ms total)
T133C 000:275 DLL Compiled: May  5 2015 11:00:52 (0000ms, 0260ms total)
T133C 000:275 Logging started @ 2021-02-08 11:55 (0000ms, 0260ms total)
T133C 000:275 JLINK_SetWarnOutHandler(...) (0001ms, 0261ms total)
T133C 000:276 JLINK_OpenEx(...)
Firmware: J-Link ARM-OB STM32 compiled Aug 22 2012 19:52:04
Hardware: V7.00
S/N: 20090928
Feature(s): RDI,FlashDL,FlashBP,JFlash,GDBFull  returns O.K. (0258ms, 0519ms total)
T133C 000:534 JLINK_SetErrorOutHandler(...) (0000ms, 0519ms total)
T133C 000:534 JLINK_ExecCommand("ProjectFile = "C:\Users\LEE\Desktop\Fwlib-Template\Project\JLinkSettings.ini"", ...)  returns 0x00 (0000ms, 0519ms total)
T133C 000:534 JLINK_ExecCommand("Device = STM32F103C8", ...)Device "STM32F103C8" selected.  returns 0x00 (0001ms, 0520ms total)
T133C 000:535 JLINK_ExecCommand("DisableConnectionTimeout", ...)  returns 0x01 (0000ms, 0520ms total)
T133C 000:535 JLINK_GetHardwareVersion()  returns 0x11170 (0000ms, 0520ms total)
T133C 000:535 JLINK_GetDLLVersion()  returns 49805 (0000ms, 0520ms total)
T133C 000:535 JLINK_GetFirmwareString(...) (0000ms, 0520ms total)
T133C 000:535 JLINK_GetDLLVersion()  returns 49805 (0000ms, 0520ms total)
T133C 000:535 JLINK_GetCompileDateTime() (0000ms, 0520ms total)
T133C 000:535 JLINK_GetFirmwareString(...) (0000ms, 0520ms total)
T133C 000:535 JLINK_GetHardwareVersion()  returns 0x11170 (0000ms, 0520ms total)
T133C 000:536 JLINK_TIF_Select(JLINKARM_TIF_SWD)  returns 0x00 (0000ms, 0520ms total)
T133C 000:536 JLINK_SetSpeed(5000) (0001ms, 0521ms total)
T133C 000:537 JLINK_GetId() >0x108 TIF>Found SWD-DP with ID 0x1BA01477 >0x0D TIF> >0x28 TIF> >0x0D TIF> >0x28 TIF> >0x0D TIF> >0x21 TIF> >0x0D TIF> >0x28 TIF> >0x0D TIF> >0x28 TIF> >0x0D TIF> >0x28 TIF> >0x0D TIF> >0x21 TIF> >0x0D TIF> >0x21 TIF> >0x0D TIF> >0x28 TIF> >0x0D TIF> >0x21 TIF> >0x0D TIF> >0x21 TIF> >0x108 TIF>Found SWD-DP with ID 0x1BA01477 >0x0D TIF> >0x21 TIF> >0x0D TIF> >0x28 TIF> >0x0D TIF> >0x28 TIF> >0x0D TIF> >0x21 TIF> >0x0D TIF> >0x28 TIF> >0x0D TIF> >0x21 TIF> >0x0D TIF> >0x21 TIF>
 >0x0D TIF> >0x21 TIF> >0x0D TIF> >0x21 TIF> >0x0D TIF> >0x28 TIF> >0x0D TIF> >0x28 TIF> >0x0D TIF> >0x21 TIF> >0x0D TIF> >0x28 TIF> >0x0D TIF> >0x28 TIF> >0x0D TIF> >0x28 TIF> >0x0D TIF> >0x21 TIF> >0x0D TIF> >0x21 TIF> >0x0D TIF> >0x28 TIF> >0x0D TIF> >0x21 TIF> >0x0D TIF> >0x21 TIF>Found Cortex-M3 r1p1, Little endian. -- CPU_WriteMem(4 bytes @ 0xE0002000) -- CPU_ReadMem(4 bytes @ 0xE000EDF0) -- CPU_ReadMem(4 bytes @ 0xE0002000)FPUnit: 6 code (BP) slots and 2 literal slots
 -- CPU_ReadMem(4 bytes @ 0xE000EDFC) -- CPU_ReadMem(4 bytes @ 0xE0001000) -- CPU_WriteMem(4 bytes @ 0xE0001000) -- CPU_ReadMem(4 bytes @ 0xE000ED88) -- CPU_WriteMem(4 bytes @ 0xE000ED88) -- CPU_ReadMem(4 bytes @ 0xE000ED88) -- CPU_WriteMem(4 bytes @ 0xE000ED88)CoreSight components:ROMTbl 0 @ E00FF000 -- CPU_ReadMem(16 bytes @ 0xE00FF000) -- CPU_ReadMem(16 bytes @ 0xE000EFF0) -- CPU_ReadMem(16 bytes @ 0xE000EFE0)ROMTbl 0 [0]: FFF0F000, CID: B105E00D, PID: 001BB000 SCS
 -- CPU_ReadMem(16 bytes @ 0xE0001FF0) -- CPU_ReadMem(16 bytes @ 0xE0001FE0)ROMTbl 0 [1]: FFF02000, CID: B105E00D, PID: 001BB002 DWT -- CPU_ReadMem(16 bytes @ 0xE0002FF0) -- CPU_ReadMem(16 bytes @ 0xE0002FE0)ROMTbl 0 [2]: FFF03000, CID: B105E00D, PID: 000BB003 FPB -- CPU_ReadMem(16 bytes @ 0xE0000FF0) -- CPU_ReadMem(16 bytes @ 0xE0000FE0)ROMTbl 0 [3]: FFF01000, CID: B105E00D, PID: 001BB001 ITM -- CPU_ReadMem(16 bytes @ 0xE00FF010) -- CPU_ReadMem(16 bytes @ 0xE0040FF0)
 -- CPU_ReadMem(16 bytes @ 0xE0040FE0)ROMTbl 0 [4]: FFF41000, CID: B105900D, PID: 001BB923 TPIU-Lite >0x0D TIF> >0x21 TIF>  returns 0x1BA01477 (0030ms, 0551ms total)
T133C 000:567 JLINK_GetDLLVersion()  returns 49805 (0000ms, 0551ms total)
T133C 000:567 JLINK_CORE_GetFound()  returns 0x30000FF (0000ms, 0551ms total)
T133C 000:567 JLINK_GetDebugInfo(0x100) -- Value=0xE00FF003  returns 0x00 (0000ms, 0551ms total)
T133C 000:567 JLINK_ReadMem (0xE00FF000, 0x0020 Bytes, ...) -- CPU is running -- CPU_ReadMem(32 bytes @ 0xE00FF000) - Data: 03 F0 F0 FF 03 20 F0 FF 03 30 F0 FF 03 10 F0 FF ...  returns 0x00 (0001ms, 0552ms total)
T133C 000:568 JLINK_ReadMem (0xE000EFF0, 0x0010 Bytes, ...) -- CPU is running -- CPU_ReadMem(16 bytes @ 0xE000EFF0) - Data: 0D 00 00 00 E0 00 00 00 05 00 00 00 B1 00 00 00  returns 0x00 (0001ms, 0553ms total)
T133C 000:569 JLINK_ReadMem (0xE000EFD0, 0x0020 Bytes, ...) -- CPU is running -- CPU_ReadMem(32 bytes @ 0xE000EFD0) - Data: 04 00 00 00 00 00 00 00 00 00 00 00 00 00 00 00 ...  returns 0x00 (0001ms, 0554ms total)
T133C 000:570 JLINK_ReadMem (0xE0001FF0, 0x0010 Bytes, ...) -- CPU is running -- CPU_ReadMem(16 bytes @ 0xE0001FF0) - Data: 0D 00 00 00 E0 00 00 00 05 00 00 00 B1 00 00 00  returns 0x00 (0001ms, 0555ms total)
T133C 000:571 JLINK_ReadMem (0xE0001FD0, 0x0020 Bytes, ...) -- CPU is running -- CPU_ReadMem(32 bytes @ 0xE0001FD0) - Data: 04 00 00 00 00 00 00 00 00 00 00 00 00 00 00 00 ...  returns 0x00 (0001ms, 0556ms total)
T133C 000:572 JLINK_ReadMem (0xE0002FF0, 0x0010 Bytes, ...) -- CPU is running -- CPU_ReadMem(16 bytes @ 0xE0002FF0) - Data: 0D 00 00 00 E0 00 00 00 05 00 00 00 B1 00 00 00  returns 0x00 (0000ms, 0556ms total)
T133C 000:572 JLINK_ReadMem (0xE0002FD0, 0x0020 Bytes, ...) -- CPU is running -- CPU_ReadMem(32 bytes @ 0xE0002FD0) - Data: 04 00 00 00 00 00 00 00 00 00 00 00 00 00 00 00 ...  returns 0x00 (0001ms, 0557ms total)
T133C 000:573 JLINK_ReadMem (0xE0000FF0, 0x0010 Bytes, ...) -- CPU is running -- CPU_ReadMem(16 bytes @ 0xE0000FF0) - Data: 0D 00 00 00 E0 00 00 00 05 00 00 00 B1 00 00 00  returns 0x00 (0000ms, 0557ms total)
T133C 000:573 JLINK_ReadMem (0xE0000FD0, 0x0020 Bytes, ...) -- CPU is running -- CPU_ReadMem(32 bytes @ 0xE0000FD0) - Data: 04 00 00 00 00 00 00 00 00 00 00 00 00 00 00 00 ...  returns 0x00 (0001ms, 0558ms total)
T133C 000:574 JLINK_ReadMem (0xE0040FF0, 0x0010 Bytes, ...) -- CPU is running -- CPU_ReadMem(16 bytes @ 0xE0040FF0) - Data: 0D 00 00 00 90 00 00 00 05 00 00 00 B1 00 00 00  returns 0x00 (0001ms, 0559ms total)
T133C 000:575 JLINK_ReadMem (0xE0040FD0, 0x0020 Bytes, ...) -- CPU is running -- CPU_ReadMem(32 bytes @ 0xE0040FD0) - Data: 04 00 00 00 00 00 00 00 00 00 00 00 00 00 00 00 ...  returns 0x00 (0000ms, 0559ms total)
T133C 000:575 JLINK_ReadMemU32(0xE000ED00, 0x0001 Items, ...) -- CPU is running -- CPU_ReadMem(4 bytes @ 0xE000ED00) - Data: 31 C2 1F 41  returns 0x01 (0001ms, 0560ms total)
T133C 000:576 JLINK_SetResetType(JLINKARM_RESET_TYPE_NORMAL)  returns JLINKARM_RESET_TYPE_NORMAL (0000ms, 0560ms total)
T133C 000:576 JLINK_Reset() -- CPU is running -- CPU_WriteMem(4 bytes @ 0xE000EDF0) -- CPU is running -- CPU_WriteMem(4 bytes @ 0xE000EDFC) >0x35 TIF> -- CPU is running -- CPU_WriteMem(4 bytes @ 0xE000ED0C) -- CPU is running -- CPU_ReadMem(4 bytes @ 0xE000EDF0) -- CPU is running -- CPU_ReadMem(4 bytes @ 0xE000EDF0) -- CPU is running -- CPU_WriteMem(4 bytes @ 0xE000EDF0) -- CPU is running -- CPU_WriteMem(4 bytes @ 0xE000EDFC) -- CPU is running -- CPU_ReadMem(4 bytes @ 0xE000EDF0)
 -- CPU_WriteMem(4 bytes @ 0xE0002000) -- CPU_ReadMem(4 bytes @ 0xE000EDFC) -- CPU_ReadMem(4 bytes @ 0xE0001000) (0017ms, 0577ms total)
T133C 000:593 JLINK_ReadReg(R15 (PC))  returns 0x08000144 (0000ms, 0577ms total)
T133C 000:593 JLINK_ReadReg(XPSR)  returns 0x01000000 (0000ms, 0577ms total)
T133C 000:593 JLINK_Halt()  returns 0x00 (0000ms, 0577ms total)
T133C 000:593 JLINK_IsHalted()  returns TRUE (0000ms, 0577ms total)
T133C 000:593 JLINK_ReadMemU32(0xE000EDF0, 0x0001 Items, ...) -- CPU_ReadMem(4 bytes @ 0xE000EDF0) - Data: 03 00 03 00  returns 0x01 (0001ms, 0578ms total)
T133C 000:594 JLINK_WriteU32(0xE000EDF0, 0xA05F0003) -- CPU_WriteMem(4 bytes @ 0xE000EDF0)  returns 0x00 (0000ms, 0578ms total)
T133C 000:594 JLINK_WriteU32(0xE000EDFC, 0x01000000) -- CPU_WriteMem(4 bytes @ 0xE000EDFC)  returns 0x00 (0001ms, 0579ms total)
T133C 000:596 JLINK_GetHWStatus(...)  returns 0x00 (0000ms, 0579ms total)
T133C 000:597 JLINK_GetNumBPUnits(Type = 0xFFFFFF00)  returns 0x06 (0000ms, 0579ms total)
T133C 000:597 JLINK_GetNumBPUnits(Type = 0xF0)  returns 0x2000 (0000ms, 0579ms total)
T133C 000:597 JLINK_GetNumWPUnits()  returns 0x04 (0000ms, 0579ms total)
T133C 000:597 JLINK_GetSpeed()  returns 0xFA0 (0000ms, 0579ms total)
T133C 000:597 JLINK_ReadMemU32(0xE000E004, 0x0001 Items, ...) -- CPU_ReadMem(4 bytes @ 0xE000E004) - Data: 01 00 00 00  returns 0x01 (0001ms, 0580ms total)
T133C 000:598 JLINK_ReadMemU32(0xE000E004, 0x0001 Items, ...) -- CPU_ReadMem(4 bytes @ 0xE000E004) - Data: 01 00 00 00  returns 0x01 (0000ms, 0580ms total)
T133C 000:598 JLINK_WriteMem(0xE0001000, 0x001C Bytes, ...) - Data: 01 00 00 00 00 00 00 00 00 00 00 00 00 00 00 00 ... -- CPU_WriteMem(28 bytes @ 0xE0001000)  returns 0x1C (0001ms, 0581ms total)
T133C 000:599 JLINK_ReadMem (0xE0001000, 0x001C Bytes, ...) -- CPU_ReadMem(28 bytes @ 0xE0001000) - Data: 01 00 00 40 00 00 00 00 00 00 00 00 00 00 00 00 ...  returns 0x00 (0001ms, 0582ms total)
T133C 000:600 JLINK_ReadReg(R15 (PC))  returns 0x08000144 (0000ms, 0582ms total)
T133C 000:600 JLINK_ReadReg(XPSR)  returns 0x01000000 (0000ms, 0582ms total)
T133C 000:602 JLINK_SWO_Control(JLINKARM_SWO_CMD_GET_SPEED_INFO, ...)  returns 0x00 (0000ms, 0582ms total)
T133C 000:602 JLINK_SWO_Control(JLINKARM_SWO_CMD_STOP, ...)  returns 0x00 (0000ms, 0582ms total)
T133C 000:602 JLINK_SWO_Control(JLINKARM_SWO_CMD_START, ...) -- UART -- 4500000bps -- CPU_ReadMem(4 bytes @ 0xE0042004)  returns 0x00 (0001ms, 0583ms total)
T133C 000:603 JLINK_WriteU32(0xE0040004, 0x00000001) -- CPU_WriteMem(4 bytes @ 0xE0040004)  returns 0x00 (0001ms, 0584ms total)
T133C 000:604 JLINK_WriteU32(0xE0040010, 0x0000000F)  returns 0x00 (0000ms, 0584ms total)
T133C 000:604 JLINK_WriteU32(0xE00400F0, 0x00000002)  returns 0x00 (0000ms, 0584ms total)
T133C 000:604 JLINK_WriteU32(0xE0040304, 0x00000000)  returns 0x00 (0000ms, 0584ms total)
T133C 000:604 JLINK_WriteU32(0xE0000FB0, 0xC5ACCE55) -- CPU_WriteMem(4 bytes @ 0xE0000FB0)  returns 0x00 (0001ms, 0585ms total)
T133C 000:605 JLINK_WriteU32(0xE0000E80, 0x0001000D)  returns 0x00 (0000ms, 0585ms total)
T133C 000:605 JLINK_WriteU32(0xE0000E00, 0xFFFFFFFF)  returns 0x00 (0000ms, 0585ms total)
T133C 000:605 JLINK_WriteU32(0xE0000E40, 0x00000008)  returns 0x00 (0000ms, 0585ms total)
T133C 000:605 JLINK_WriteU32(0xE0001000, 0x00010A1F)  returns 0x00 (0000ms, 0585ms total)
T133C 000:690 JLINK_SetResetType(JLINKARM_RESET_TYPE_NORMAL)  returns JLINKARM_RESET_TYPE_NORMAL (0000ms, 0585ms total)
T133C 000:690 JLINK_Reset() -- CPU_WriteMem(4 bytes @ 0xE0000E00) -- CPU_WriteMem(4 bytes @ 0xE0000E40) -- CPU_WriteMem(4 bytes @ 0xE0000E80) -- CPU_WriteMem(4 bytes @ 0xE0001000) -- CPU_WriteMem(4 bytes @ 0xE0040010) -- CPU_WriteMem(4 bytes @ 0xE00400F0) -- CPU_WriteMem(4 bytes @ 0xE0040304) -- CPU_WriteMem(4 bytes @ 0xE000EDF0) -- CPU_WriteMem(4 bytes @ 0xE000EDFC) >0x35 TIF> -- CPU_WriteMem(4 bytes @ 0xE000ED0C) -- CPU_ReadMem(4 bytes @ 0xE000EDF0) -- CPU_ReadMem(4 bytes @ 0xE000EDF0)
 -- CPU_WriteMem(4 bytes @ 0xE000EDF0) -- CPU_WriteMem(4 bytes @ 0xE000EDFC) -- CPU is running -- CPU_ReadMem(4 bytes @ 0xE000EDF0) -- CPU_WriteMem(4 bytes @ 0xE0002000) -- CPU_ReadMem(4 bytes @ 0xE000EDFC) -- CPU_ReadMem(4 bytes @ 0xE0001000) (0020ms, 0605ms total)
T133C 000:710 JLINK_WriteU32(0xE000EDFC, 0x01000000) -- CPU_WriteMem(4 bytes @ 0xE000EDFC)  returns 0x00 (0000ms, 0605ms total)
T133C 000:710 JLINK_ReadReg(R15 (PC))  returns 0x08000144 (0000ms, 0605ms total)
T133C 000:710 JLINK_ReadReg(XPSR)  returns 0x01000000 (0000ms, 0605ms total)
T133C 000:714 JLINK_ReadMem (0x08000144, 0x003C Bytes, ...) -- CPU_ReadMem(64 bytes @ 0x08000140) -- Updating C cache (64 bytes @ 0x08000140) -- Read from C cache (60 bytes @ 0x08000144) - Data: 06 48 80 47 06 48 00 47 FE E7 FE E7 FE E7 FE E7 ...  returns 0x00 (0001ms, 0606ms total)
T133C 000:772 JLINK_WriteU32(0xE0001008, 0x00000000)  returns 0x00 (0000ms, 0606ms total)
T133C 000:772 JLINK_WriteU32(0xE000100C, 0x00000000)  returns 0x00 (0000ms, 0606ms total)
T133C 000:772 JLINK_WriteU32(0xE0001010, 0x00000000)  returns 0x00 (0000ms, 0606ms total)
T133C 000:772 JLINK_WriteU32(0xE0001014, 0x00000000)  returns 0x00 (0000ms, 0606ms total)
T133C 000:772 JLINK_WriteU32(0xE0001018, 0x00000000)  returns 0x00 (0000ms, 0606ms total)
T133C 001:632 JLINK_ReadMem (0x2000006E, 0x0002 Bytes, ...) -- CPU_ReadMem(64 bytes @ 0x20000040) -- Updating C cache (64 bytes @ 0x20000040) -- Read from C cache (2 bytes @ 0x2000006E) - Data: 00 00  returns 0x00 (0001ms, 0607ms total)
T133C 001:640 JLINK_ReadMem (0x20000048, 0x0004 Bytes, ...) -- Read from C cache (4 bytes @ 0x20000048) - Data: 3A A4 AE 3B  returns 0x00 (0000ms, 0607ms total)
T133C 001:644 JLINK_ReadMem (0x20000044, 0x0004 Bytes, ...) -- Read from C cache (4 bytes @ 0x20000044) - Data: 85 8A 4C BC  returns 0x00 (0000ms, 0607ms total)
T133C 001:648 JLINK_ReadMem (0x20000040, 0x0004 Bytes, ...) -- Read from C cache (4 bytes @ 0x20000040) - Data: C0 9F CF BA  returns 0x00 (0000ms, 0607ms total)
T39E8 001:669 JLINK_SetBPEx(Addr = 0x080024AC, Type = 0xFFFFFFF2)  returns 0x00000001 (0000ms, 0607ms total)
T39E8 001:669 JLINK_ReadMemU32(0xE0001004, 0x0001 Items, ...) -- CPU_ReadMem(4 bytes @ 0xE0001004) - Data: 2F 0D 00 00  returns 0x01 (0001ms, 0608ms total)
T39E8 001:670 JLINK_WriteU32(0xE0001004, 0x000003FF) -- CPU_WriteMem(4 bytes @ 0xE0001004)  returns 0x00 (0001ms, 0609ms total)
T39E8 001:671 JLINK_WriteU32(0xE0001000, 0x00410A1F)  returns 0x00 (0000ms, 0609ms total)
T39E8 001:671 JLINK_WriteU32(0xE0000E80, 0x0001000F)  returns 0x00 (0000ms, 0609ms total)
T39E8 001:671 JLINK_SWO_Control(JLINKARM_SWO_CMD_GET_NUM_BYTES, ...)  returns 0x00 (0000ms, 0609ms total)
T39E8 001:671 JLINK_Go() -- CPU_WriteMem(4 bytes @ 0xE0002000) -- CPU_WriteMem(4 bytes @ 0xE0001000) -- CPU_ReadMem(4 bytes @ 0xE0001000) -- CPU_WriteMem(4 bytes @ 0xE0000E80) -- CPU_WriteMem(4 bytes @ 0xE0001008) -- CPU_WriteMem(4 bytes @ 0xE000100C) -- CPU_WriteMem(4 bytes @ 0xE0001010) -- CPU_WriteMem(4 bytes @ 0xE0001014) -- CPU_WriteMem(4 bytes @ 0xE0001018) -- CPU_WriteMem(4 bytes @ 0xE0002008) -- CPU_WriteMem(4 bytes @ 0xE000200C) -- CPU_WriteMem(4 bytes @ 0xE0002010)
 -- CPU_WriteMem(4 bytes @ 0xE0002014) -- CPU_WriteMem(4 bytes @ 0xE0002018) -- CPU_WriteMem(4 bytes @ 0xE000201C) -- CPU_WriteMem(4 bytes @ 0xE0001004) (0007ms, 0616ms total)
T39E8 001:678 JLINK_WriteU32(0xE0001000, 0x00010A1F) -- CPU is running -- CPU_WriteMem(4 bytes @ 0xE0001000)  returns 0x00 (0001ms, 0617ms total)
T39E8 001:780 JLINK_SWO_Read(..., Offset = 0x00, NumBytes = 0x400000) - Data:  NumBytesRead = 0x00 (0000ms, 0617ms total)
T39E8 001:782 JLINK_SWO_Control(JLINKARM_SWO_CMD_FLUSH, ...)  returns 0x00 (0000ms, 0617ms total)
T39E8 001:782 JLINK_IsHalted()  returns TRUE (0003ms, 0620ms total)
T39E8 001:785 JLINK_Halt()  returns 0x00 (0000ms, 0617ms total)
T39E8 001:785 JLINK_IsHalted()  returns TRUE (0000ms, 0617ms total)
T39E8 001:785 JLINK_IsHalted()  returns TRUE (0000ms, 0617ms total)
T39E8 001:785 JLINK_IsHalted()  returns TRUE (0000ms, 0617ms total)
T39E8 001:785 JLINK_ReadReg(R15 (PC))  returns 0x080024AC (0000ms, 0617ms total)
T39E8 001:785 JLINK_ReadReg(XPSR)  returns 0x61000000 (0000ms, 0617ms total)
T39E8 001:785 JLINK_SWO_Read(..., Offset = 0x00, NumBytes = 0x400000) - Data:  NumBytesRead = 0x00 (0000ms, 0617ms total)
T39E8 001:787 JLINK_SWO_Control(JLINKARM_SWO_CMD_FLUSH, ...)  returns 0x00 (0000ms, 0617ms total)
T39E8 001:787 JLINK_ClrBPEx(BPHandle = 0x00000001)  returns 0x00 (0000ms, 0617ms total)
T39E8 001:787 JLINK_ReadMemU32(0xE000ED30, 0x0001 Items, ...) -- CPU_ReadMem(4 bytes @ 0xE000ED30) - Data: 03 00 00 00  returns 0x01 (0000ms, 0617ms total)
T39E8 001:787 JLINK_ReadMemU32(0xE0001028, 0x0001 Items, ...) -- CPU_ReadMem(4 bytes @ 0xE0001028) - Data: 00 00 00 00  returns 0x01 (0001ms, 0618ms total)
T39E8 001:788 JLINK_ReadMemU32(0xE0001038, 0x0001 Items, ...) -- CPU_ReadMem(4 bytes @ 0xE0001038) - Data: 00 02 00 00  returns 0x01 (0000ms, 0618ms total)
T39E8 001:788 JLINK_ReadMemU32(0xE0001048, 0x0001 Items, ...) -- CPU_ReadMem(4 bytes @ 0xE0001048) - Data: 00 00 00 00  returns 0x01 (0001ms, 0619ms total)
T39E8 001:789 JLINK_ReadMemU32(0xE0001058, 0x0001 Items, ...) -- CPU_ReadMem(4 bytes @ 0xE0001058) - Data: 00 00 00 00  returns 0x01 (0000ms, 0619ms total)
T39E8 001:790 JLINK_ReadReg(R0)  returns 0x080024AD (0000ms, 0620ms total)
T39E8 001:790 JLINK_ReadReg(R1)  returns 0x200004B0 (0000ms, 0620ms total)
T39E8 001:790 JLINK_ReadReg(R2)  returns 0x00000000 (0000ms, 0620ms total)
T39E8 001:790 JLINK_ReadReg(R3)  returns 0x08001D91 (0000ms, 0620ms total)
T39E8 001:790 JLINK_ReadReg(R4)  returns 0x080026B0 (0000ms, 0620ms total)
T39E8 001:790 JLINK_ReadReg(R5)  returns 0x080026B0 (0000ms, 0620ms total)
T39E8 001:790 JLINK_ReadReg(R6)  returns 0x40000000 (0000ms, 0620ms total)
T39E8 001:790 JLINK_ReadReg(R7)  returns 0x00000000 (0000ms, 0620ms total)
T39E8 001:790 JLINK_ReadReg(R8)  returns 0x00000000 (0000ms, 0620ms total)
T39E8 001:790 JLINK_ReadReg(R9)  returns 0x20000160 (0000ms, 0620ms total)
T39E8 001:790 JLINK_ReadReg(R10)  returns 0x00000000 (0000ms, 0620ms total)
T39E8 001:790 JLINK_ReadReg(R11)  returns 0x00000000 (0000ms, 0620ms total)
T39E8 001:790 JLINK_ReadReg(R12)  returns 0x0000001E (0000ms, 0620ms total)
T39E8 001:790 JLINK_ReadReg(R13 (SP))  returns 0x200004B0 (0000ms, 0620ms total)
T39E8 001:790 JLINK_ReadReg(R14)  returns 0x08000771 (0000ms, 0620ms total)
T39E8 001:790 JLINK_ReadReg(R15 (PC))  returns 0x080024AC (0000ms, 0620ms total)
T39E8 001:790 JLINK_ReadReg(XPSR)  returns 0x61000000 (0000ms, 0620ms total)
T39E8 001:790 JLINK_ReadReg(MSP)  returns 0x200004B0 (0000ms, 0620ms total)
T39E8 001:790 JLINK_ReadReg(PSP)  returns 0x20001000 (0000ms, 0620ms total)
T39E8 001:790 JLINK_ReadReg(CFBP)  returns 0x00000000 (0000ms, 0620ms total)
T133C 001:791 JLINK_ReadMemU32(0xE0001004, 0x0001 Items, ...) -- CPU_ReadMem(4 bytes @ 0xE0001004) - Data: 0A 1E 00 00  returns 0x01 (0000ms, 0620ms total)
T133C 001:791 JLINK_ReadMem (0x2000006E, 0x0002 Bytes, ...) -- CPU_ReadMem(64 bytes @ 0x20000040) -- Updating C cache (64 bytes @ 0x20000040) -- Read from C cache (2 bytes @ 0x2000006E) - Data: 00 00  returns 0x00 (0001ms, 0621ms total)
T133C 001:792 JLINK_ReadMem (0x20000048, 0x0004 Bytes, ...) -- Read from C cache (4 bytes @ 0x20000048) - Data: 00 00 00 00  returns 0x00 (0000ms, 0621ms total)
T133C 001:793 JLINK_ReadMem (0x20000044, 0x0004 Bytes, ...) -- Read from C cache (4 bytes @ 0x20000044) - Data: 00 00 00 00  returns 0x00 (0000ms, 0621ms total)
T133C 001:793 JLINK_ReadMem (0x20000040, 0x0004 Bytes, ...) -- Read from C cache (4 bytes @ 0x20000040) - Data: 00 00 00 00  returns 0x00 (0000ms, 0621ms total)
T133C 001:797 JLINK_ReadMem (0x080024AC, 0x003C Bytes, ...) -- CPU_ReadMem(128 bytes @ 0x08002480) -- Updating C cache (128 bytes @ 0x08002480) -- Read from C cache (60 bytes @ 0x080024AC) - Data: 1C B5 4F F4 E1 30 FF F7 93 FB FF F7 A1 FF FE F7 ...  returns 0x00 (0002ms, 0623ms total)
T39E8 012:853 JLINK_SetBPEx(Addr = 0x08002502, Type = 0xFFFFFFF2)  returns 0x00000002 (0001ms, 0624ms total)
T39E8 012:854 JLINK_ReadMemU32(0xE0001004, 0x0001 Items, ...) - Data: 0A 1E 00 00  returns 0x01 (0000ms, 0624ms total)
T39E8 012:854 JLINK_WriteU32(0xE0001004, 0x00001FFF) -- CPU_WriteMem(4 bytes @ 0xE0001004)  returns 0x00 (0000ms, 0624ms total)
T39E8 012:854 JLINK_WriteU32(0xE0001000, 0x00410A1F)  returns 0x00 (0000ms, 0624ms total)
T39E8 012:854 JLINK_WriteU32(0xE0000E80, 0x0001000F)  returns 0x00 (0000ms, 0624ms total)
T39E8 012:854 JLINK_SWO_Control(JLINKARM_SWO_CMD_GET_NUM_BYTES, ...)  returns 0x00 (0000ms, 0624ms total)
T39E8 012:854 JLINK_Go() -- CPU_WriteMem(4 bytes @ 0xE0002000) -- CPU_WriteMem(4 bytes @ 0xE0001000) -- CPU_ReadMem(4 bytes @ 0xE0001000) -- CPU_WriteMem(4 bytes @ 0xE0000E80) -- CPU_WriteMem(4 bytes @ 0xE0002008) (0003ms, 0627ms total)
T39E8 012:858 JLINK_WriteU32(0xE0001000, 0x00010A1F) -- CPU is running -- CPU_WriteMem(4 bytes @ 0xE0001000)  returns 0x00 (0000ms, 0627ms total)
T39E8 012:960 JLINK_SWO_Read(..., Offset = 0x00, NumBytes = 0x400000) - Data:  NumBytesRead = 0x00 (0000ms, 0627ms total)
T39E8 012:962 JLINK_SWO_Control(JLINKARM_SWO_CMD_FLUSH, ...)  returns 0x00 (0000ms, 0627ms total)
T39E8 012:962 JLINK_IsHalted()  returns FALSE (0000ms, 0627ms total)
T39E8 013:063 JLINK_SWO_Read(..., Offset = 0x00, NumBytes = 0x400000) - Data:  NumBytesRead = 0x00 (0000ms, 0627ms total)
T39E8 013:065 JLINK_SWO_Control(JLINKARM_SWO_CMD_FLUSH, ...)  returns 0x00 (0000ms, 0627ms total)
T39E8 013:065 JLINK_IsHalted()  returns FALSE (0001ms, 0628ms total)
T39E8 013:167 JLINK_SWO_Read(..., Offset = 0x00, NumBytes = 0x400000) - Data:  NumBytesRead = 0x00 (0000ms, 0627ms total)
T39E8 013:169 JLINK_SWO_Control(JLINKARM_SWO_CMD_FLUSH, ...)  returns 0x00 (0000ms, 0627ms total)
T39E8 013:169 JLINK_IsHalted()  returns TRUE (0003ms, 0630ms total)
T39E8 013:172 JLINK_Halt()  returns 0x00 (0000ms, 0627ms total)
T39E8 013:172 JLINK_IsHalted()  returns TRUE (0000ms, 0627ms total)
T39E8 013:172 JLINK_IsHalted()  returns TRUE (0000ms, 0627ms total)
T39E8 013:172 JLINK_IsHalted()  returns TRUE (0000ms, 0627ms total)
T39E8 013:172 JLINK_ReadReg(R15 (PC))  returns 0x08002502 (0000ms, 0627ms total)
T39E8 013:172 JLINK_ReadReg(XPSR)  returns 0xA1000000 (0000ms, 0627ms total)
T39E8 013:172 JLINK_SWO_Read(..., Offset = 0x00, NumBytes = 0x400000) - Data:  NumBytesRead = 0x00 (0000ms, 0627ms total)
T39E8 013:174 JLINK_SWO_Control(JLINKARM_SWO_CMD_FLUSH, ...)  returns 0x00 (0000ms, 0627ms total)
T39E8 013:174 JLINK_ClrBPEx(BPHandle = 0x00000002)  returns 0x00 (0000ms, 0627ms total)
T39E8 013:174 JLINK_ReadMemU32(0xE000ED30, 0x0001 Items, ...) -- CPU_ReadMem(4 bytes @ 0xE000ED30) - Data: 03 00 00 00  returns 0x01 (0000ms, 0627ms total)
T39E8 013:174 JLINK_ReadMemU32(0xE0001028, 0x0001 Items, ...) -- CPU_ReadMem(4 bytes @ 0xE0001028) - Data: 00 00 00 00  returns 0x01 (0001ms, 0628ms total)
T39E8 013:175 JLINK_ReadMemU32(0xE0001038, 0x0001 Items, ...) -- CPU_ReadMem(4 bytes @ 0xE0001038) - Data: 00 02 00 00  returns 0x01 (0000ms, 0628ms total)
T39E8 013:175 JLINK_ReadMemU32(0xE0001048, 0x0001 Items, ...) -- CPU_ReadMem(4 bytes @ 0xE0001048) - Data: 00 00 00 00  returns 0x01 (0001ms, 0629ms total)
T39E8 013:176 JLINK_ReadMemU32(0xE0001058, 0x0001 Items, ...) -- CPU_ReadMem(4 bytes @ 0xE0001058) - Data: 00 00 00 00  returns 0x01 (0000ms, 0629ms total)
T39E8 013:176 JLINK_ReadReg(R0)  returns 0xBC62E67F (0000ms, 0629ms total)
T39E8 013:176 JLINK_ReadReg(R1)  returns 0x00000077 (0000ms, 0629ms total)
T39E8 013:176 JLINK_ReadReg(R2)  returns 0x000000A0 (0000ms, 0629ms total)
T39E8 013:176 JLINK_ReadReg(R3)  returns 0x80000000 (0000ms, 0629ms total)
T39E8 013:176 JLINK_ReadReg(R4)  returns 0x080026B0 (0000ms, 0629ms total)
T39E8 013:176 JLINK_ReadReg(R5)  returns 0x080026B0 (0000ms, 0629ms total)
T39E8 013:176 JLINK_ReadReg(R6)  returns 0x40000000 (0000ms, 0629ms total)
T39E8 013:176 JLINK_ReadReg(R7)  returns 0x00000000 (0000ms, 0629ms total)
T39E8 013:176 JLINK_ReadReg(R8)  returns 0x00000000 (0000ms, 0629ms total)
T39E8 013:176 JLINK_ReadReg(R9)  returns 0x20000160 (0000ms, 0629ms total)
T39E8 013:176 JLINK_ReadReg(R10)  returns 0x00000000 (0000ms, 0629ms total)
T39E8 013:176 JLINK_ReadReg(R11)  returns 0x00000000 (0000ms, 0629ms total)
T39E8 013:176 JLINK_ReadReg(R12)  returns 0x0000001C (0000ms, 0629ms total)
T39E8 013:176 JLINK_ReadReg(R13 (SP))  returns 0x200004A0 (0000ms, 0629ms total)
T39E8 013:176 JLINK_ReadReg(R14)  returns 0x080009D3 (0000ms, 0629ms total)
T39E8 013:176 JLINK_ReadReg(R15 (PC))  returns 0x08002502 (0000ms, 0629ms total)
T39E8 013:177 JLINK_ReadReg(XPSR)  returns 0xA1000000 (0000ms, 0630ms total)
T39E8 013:177 JLINK_ReadReg(MSP)  returns 0x200004A0 (0000ms, 0630ms total)
T39E8 013:177 JLINK_ReadReg(PSP)  returns 0x20001000 (0000ms, 0630ms total)
T39E8 013:177 JLINK_ReadReg(CFBP)  returns 0x00000000 (0000ms, 0630ms total)
T133C 013:177 JLINK_ReadMem (0x200004AC, 0x0004 Bytes, ...) -- CPU_ReadMem(64 bytes @ 0x20000480) -- Updating C cache (64 bytes @ 0x20000480) -- Read from C cache (4 bytes @ 0x200004AC) - Data: 71 07 00 08  returns 0x00 (0001ms, 0631ms total)
T133C 013:178 JLINK_ReadMemU32(0xE0001004, 0x0001 Items, ...) -- CPU_ReadMem(4 bytes @ 0xE0001004) - Data: C9 F7 29 01  returns 0x01 (0001ms, 0632ms total)
T133C 013:179 JLINK_ReadMem (0x2000006E, 0x0002 Bytes, ...) -- CPU_ReadMem(64 bytes @ 0x20000040) -- Updating C cache (64 bytes @ 0x20000040) -- Read from C cache (2 bytes @ 0x2000006E) - Data: 00 00  returns 0x00 (0001ms, 0633ms total)
T133C 013:180 JLINK_ReadMem (0x20000048, 0x0004 Bytes, ...) -- Read from C cache (4 bytes @ 0x20000048) - Data: 00 00 00 00  returns 0x00 (0000ms, 0633ms total)
T133C 013:180 JLINK_ReadMem (0x20000044, 0x0004 Bytes, ...) -- Read from C cache (4 bytes @ 0x20000044) - Data: 00 00 00 00  returns 0x00 (0000ms, 0633ms total)
T133C 013:180 JLINK_ReadMem (0x20000040, 0x0004 Bytes, ...) -- Read from C cache (4 bytes @ 0x20000040) - Data: 00 00 00 00  returns 0x00 (0000ms, 0633ms total)
T133C 013:186 JLINK_ReadMem (0x08002502, 0x0002 Bytes, ...) -- CPU_ReadMem(64 bytes @ 0x08002500) -- Updating C cache (64 bytes @ 0x08002500) -- Read from C cache (2 bytes @ 0x08002502) - Data: 13 49  returns 0x00 (0001ms, 0634ms total)
T133C 013:187 JLINK_ReadMem (0x08002504, 0x003C Bytes, ...) -- Read from C cache (60 bytes @ 0x08002504) - Data: B1 F9 04 00 FD F7 2A FF 04 46 10 49 B1 F9 02 00 ...  returns 0x00 (0000ms, 0634ms total)
T39E8 019:846 JLINK_ReadMemU32(0xE0001004, 0x0001 Items, ...) - Data: C9 F7 29 01  returns 0x01 (0000ms, 0634ms total)
T39E8 019:846 JLINK_WriteU32(0xE0001004, 0x0129F7FF) -- CPU_WriteMem(4 bytes @ 0xE0001004)  returns 0x00 (0000ms, 0634ms total)
T39E8 019:846 JLINK_WriteU32(0xE0001000, 0x00410A1F)  returns 0x00 (0000ms, 0634ms total)
T39E8 019:846 JLINK_WriteU32(0xE0000E80, 0x0001000F)  returns 0x00 (0000ms, 0634ms total)
T39E8 019:846 JLINK_SWO_Control(JLINKARM_SWO_CMD_GET_NUM_BYTES, ...)  returns 0x00 (0001ms, 0635ms total)
T39E8 019:847 JLINK_Step() -- Read from C cache (2 bytes @ 0x08002502) -- CPU_ReadMem(64 bytes @ 0x08002540) -- Updating C cache (64 bytes @ 0x08002540) -- Read from C cache (4 bytes @ 0x08002550) -- Simulated  returns 0x00 (0001ms, 0636ms total)
T39E8 019:848 JLINK_ReadReg(R15 (PC))  returns 0x08002504 (0000ms, 0636ms total)
T39E8 019:848 JLINK_ReadReg(XPSR)  returns 0xA1000000 (0000ms, 0636ms total)
T39E8 019:848 JLINK_SetBPEx(Addr = 0x08002502, Type = 0xFFFFFFF2)  returns 0x00000003 (0000ms, 0636ms total)
T39E8 019:848 JLINK_SetBPEx(Addr = 0x080024D0, Type = 0xFFFFFFF2)  returns 0x00000004 (0000ms, 0636ms total)
T39E8 019:848 JLINK_ReadMemU32(0xE0001004, 0x0001 Items, ...) - Data: FF F7 29 01  returns 0x01 (0000ms, 0636ms total)
T39E8 019:848 JLINK_WriteU32(0xE0001004, 0x0129F7FF)  returns 0x00 (0000ms, 0636ms total)
T39E8 019:848 JLINK_WriteU32(0xE0001000, 0x00410A1F)  returns 0x00 (0000ms, 0636ms total)
T39E8 019:848 JLINK_WriteU32(0xE0000E80, 0x0001000F)  returns 0x00 (0000ms, 0636ms total)
T39E8 019:848 JLINK_SWO_Control(JLINKARM_SWO_CMD_GET_NUM_BYTES, ...)  returns 0x00 (0000ms, 0636ms total)
T39E8 019:848 JLINK_Go() -- CPU_WriteMem(4 bytes @ 0xE0002000) -- CPU_WriteMem(4 bytes @ 0xE0002000) -- CPU_WriteMem(4 bytes @ 0xE0001000) -- CPU_ReadMem(4 bytes @ 0xE0001000) -- CPU_WriteMem(4 bytes @ 0xE0000E80) -- CPU_WriteMem(4 bytes @ 0xE000200C) -- CPU_WriteMem(4 bytes @ 0xE0001004) (0005ms, 0641ms total)
T39E8 019:853 JLINK_WriteU32(0xE0001000, 0x00010A1F) -- CPU is running -- CPU_WriteMem(4 bytes @ 0xE0001000)  returns 0x00 (0001ms, 0642ms total)
T39E8 019:955 JLINK_SWO_Read(..., Offset = 0x00, NumBytes = 0x400000) - Data:  NumBytesRead = 0x00 (0000ms, 0642ms total)
T39E8 019:956 JLINK_SWO_Control(JLINKARM_SWO_CMD_FLUSH, ...)  returns 0x00 (0000ms, 0642ms total)
T39E8 019:956 JLINK_IsHalted()  returns TRUE (0003ms, 0645ms total)
T39E8 019:960 JLINK_Halt()  returns 0x00 (0000ms, 0642ms total)
T39E8 019:960 JLINK_IsHalted()  returns TRUE (0000ms, 0642ms total)
T39E8 019:960 JLINK_IsHalted()  returns TRUE (0000ms, 0642ms total)
T39E8 019:960 JLINK_IsHalted()  returns TRUE (0000ms, 0642ms total)
T39E8 019:960 JLINK_ReadReg(R15 (PC))  returns 0x080024D0 (0000ms, 0642ms total)
T39E8 019:960 JLINK_ReadReg(XPSR)  returns 0x61000000 (0000ms, 0642ms total)
T39E8 019:960 JLINK_SWO_Read(..., Offset = 0x00, NumBytes = 0x400000) - Data:  NumBytesRead = 0x00 (0000ms, 0642ms total)
T39E8 019:962 JLINK_SWO_Control(JLINKARM_SWO_CMD_FLUSH, ...)  returns 0x00 (0000ms, 0642ms total)
T39E8 019:962 JLINK_ClrBPEx(BPHandle = 0x00000003)  returns 0x00 (0000ms, 0642ms total)
T39E8 019:962 JLINK_ClrBPEx(BPHandle = 0x00000004)  returns 0x00 (0000ms, 0642ms total)
T39E8 019:962 JLINK_ReadMemU32(0xE000ED30, 0x0001 Items, ...) -- CPU_ReadMem(4 bytes @ 0xE000ED30) - Data: 03 00 00 00  returns 0x01 (0000ms, 0642ms total)
T39E8 019:962 JLINK_ReadMemU32(0xE0001028, 0x0001 Items, ...) -- CPU_ReadMem(4 bytes @ 0xE0001028) - Data: 00 00 00 00  returns 0x01 (0001ms, 0643ms total)
T39E8 019:963 JLINK_ReadMemU32(0xE0001038, 0x0001 Items, ...) -- CPU_ReadMem(4 bytes @ 0xE0001038) - Data: 00 02 00 00  returns 0x01 (0000ms, 0643ms total)
T39E8 019:963 JLINK_ReadMemU32(0xE0001048, 0x0001 Items, ...) -- CPU_ReadMem(4 bytes @ 0xE0001048) - Data: 00 00 00 00  returns 0x01 (0001ms, 0644ms total)
T39E8 019:964 JLINK_ReadMemU32(0xE0001058, 0x0001 Items, ...) -- CPU_ReadMem(4 bytes @ 0xE0001058) - Data: 00 00 00 00  returns 0x01 (0000ms, 0644ms total)
T39E8 019:964 JLINK_ReadReg(R0)  returns 0x00000001 (0000ms, 0644ms total)
T39E8 019:964 JLINK_ReadReg(R1)  returns 0x20000040 (0000ms, 0644ms total)
T39E8 019:964 JLINK_ReadReg(R2)  returns 0x00000074 (0000ms, 0644ms total)
T39E8 019:964 JLINK_ReadReg(R3)  returns 0x80000000 (0000ms, 0644ms total)
T39E8 019:964 JLINK_ReadReg(R4)  returns 0x45003000 (0000ms, 0644ms total)
T39E8 019:964 JLINK_ReadReg(R5)  returns 0x00000000 (0000ms, 0644ms total)
T39E8 019:964 JLINK_ReadReg(R6)  returns 0x40000000 (0000ms, 0644ms total)
T39E8 019:964 JLINK_ReadReg(R7)  returns 0x00000000 (0000ms, 0644ms total)
T39E8 019:964 JLINK_ReadReg(R8)  returns 0x00000000 (0000ms, 0644ms total)
T39E8 019:964 JLINK_ReadReg(R9)  returns 0x20000160 (0000ms, 0644ms total)
T39E8 019:964 JLINK_ReadReg(R10)  returns 0x00000000 (0000ms, 0644ms total)
T39E8 019:965 JLINK_ReadReg(R11)  returns 0x00000000 (0000ms, 0644ms total)
T39E8 019:965 JLINK_ReadReg(R12)  returns 0x54B673EA (0000ms, 0644ms total)
T39E8 019:965 JLINK_ReadReg(R13 (SP))  returns 0x200004A0 (0000ms, 0644ms total)
T39E8 019:965 JLINK_ReadReg(R14)  returns 0x080011D9 (0000ms, 0644ms total)
T39E8 019:965 JLINK_ReadReg(R15 (PC))  returns 0x080024D0 (0000ms, 0644ms total)
T39E8 019:965 JLINK_ReadReg(XPSR)  returns 0x61000000 (0000ms, 0644ms total)
T39E8 019:965 JLINK_ReadReg(MSP)  returns 0x200004A0 (0000ms, 0644ms total)
T39E8 019:965 JLINK_ReadReg(PSP)  returns 0x20001000 (0000ms, 0644ms total)
T39E8 019:965 JLINK_ReadReg(CFBP)  returns 0x00000000 (0000ms, 0644ms total)
T133C 019:965 JLINK_ReadMem (0x200004AC, 0x0004 Bytes, ...) -- CPU_ReadMem(64 bytes @ 0x20000480) -- Updating C cache (64 bytes @ 0x20000480) -- Read from C cache (4 bytes @ 0x200004AC) - Data: 71 07 00 08  returns 0x00 (0001ms, 0645ms total)
T133C 019:966 JLINK_ReadMemU32(0xE0001004, 0x0001 Items, ...) -- CPU_ReadMem(4 bytes @ 0xE0001004) - Data: 91 6B 2A 01  returns 0x01 (0000ms, 0645ms total)
T133C 019:967 JLINK_ReadMem (0x2000006E, 0x0002 Bytes, ...) -- CPU_ReadMem(64 bytes @ 0x20000040) -- Updating C cache (64 bytes @ 0x20000040) -- Read from C cache (2 bytes @ 0x2000006E) - Data: 01 00  returns 0x00 (0001ms, 0646ms total)
T133C 019:969 JLINK_ReadMem (0x20000048, 0x0004 Bytes, ...) -- Read from C cache (4 bytes @ 0x20000048) - Data: 49 01 24 3B  returns 0x00 (0000ms, 0646ms total)
T133C 019:969 JLINK_ReadMem (0x20000044, 0x0004 Bytes, ...) -- Read from C cache (4 bytes @ 0x20000044) - Data: C2 40 80 3A  returns 0x00 (0000ms, 0646ms total)
T133C 019:969 JLINK_ReadMem (0x20000040, 0x0004 Bytes, ...) -- Read from C cache (4 bytes @ 0x20000040) - Data: 57 00 50 BA  returns 0x00 (0000ms, 0646ms total)
T133C 019:974 JLINK_ReadMem (0x080024D0, 0x003C Bytes, ...) -- CPU_ReadMem(128 bytes @ 0x080024C0) -- Updating C cache (128 bytes @ 0x080024C0) -- Read from C cache (60 bytes @ 0x080024D0) - Data: 00 20 1A 49 08 80 FF F7 0F F8 28 B9 18 48 00 88 ...  returns 0x00 (0002ms, 0648ms total)
T39E8 021:870 JLINK_ReadMemU32(0xE0001004, 0x0001 Items, ...) - Data: 91 6B 2A 01  returns 0x01 (0000ms, 0648ms total)
T39E8 021:870 JLINK_WriteU32(0xE0001004, 0x012A6BFF) -- CPU_WriteMem(4 bytes @ 0xE0001004)  returns 0x00 (0001ms, 0649ms total)
T39E8 021:871 JLINK_WriteU32(0xE0001000, 0x00410A1F)  returns 0x00 (0000ms, 0649ms total)
T39E8 021:871 JLINK_WriteU32(0xE0000E80, 0x0001000F)  returns 0x00 (0000ms, 0649ms total)
T39E8 021:871 JLINK_SWO_Control(JLINKARM_SWO_CMD_GET_NUM_BYTES, ...)  returns 0x00 (0000ms, 0649ms total)
T39E8 021:871 JLINK_Step() -- Read from C cache (2 bytes @ 0x080024D0) -- Simulated  returns 0x00 (0001ms, 0650ms total)
T39E8 021:872 JLINK_ReadReg(R15 (PC))  returns 0x080024D2 (0000ms, 0650ms total)
T39E8 021:872 JLINK_ReadReg(XPSR)  returns 0x61000000 (0000ms, 0650ms total)
T39E8 021:872 JLINK_SetBPEx(Addr = 0x080024D0, Type = 0xFFFFFFF2)  returns 0x00000005 (0000ms, 0650ms total)
T39E8 021:872 JLINK_ReadMemU32(0xE0001004, 0x0001 Items, ...) - Data: FF 6B 2A 01  returns 0x01 (0000ms, 0650ms total)
T39E8 021:872 JLINK_WriteU32(0xE0001004, 0x012A6BFF)  returns 0x00 (0000ms, 0650ms total)
T39E8 021:872 JLINK_WriteU32(0xE0001000, 0x00410A1F)  returns 0x00 (0000ms, 0650ms total)
T39E8 021:872 JLINK_WriteU32(0xE0000E80, 0x0001000F)  returns 0x00 (0000ms, 0650ms total)
T39E8 021:872 JLINK_SWO_Control(JLINKARM_SWO_CMD_GET_NUM_BYTES, ...)  returns 0x00 (0000ms, 0650ms total)
T39E8 021:872 JLINK_Go() -- CPU_WriteMem(4 bytes @ 0xE0002000) -- CPU_WriteMem(4 bytes @ 0xE0001000) -- CPU_ReadMem(4 bytes @ 0xE0001000) -- CPU_WriteMem(4 bytes @ 0xE0000E80) -- CPU_WriteMem(4 bytes @ 0xE0002008) -- CPU_WriteMem(4 bytes @ 0xE000200C) -- CPU_WriteMem(4 bytes @ 0xE0001004) (0005ms, 0655ms total)
T39E8 021:878 JLINK_WriteU32(0xE0001000, 0x00010A1F) -- CPU is running -- CPU_WriteMem(4 bytes @ 0xE0001000)  returns 0x00 (0001ms, 0656ms total)
T39E8 021:979 JLINK_SWO_Read(..., Offset = 0x00, NumBytes = 0x400000) - Data:  NumBytesRead = 0x00 (0000ms, 0656ms total)
T39E8 021:981 JLINK_SWO_Control(JLINKARM_SWO_CMD_FLUSH, ...)  returns 0x00 (0000ms, 0656ms total)
T39E8 021:981 JLINK_IsHalted()  returns TRUE (0004ms, 0660ms total)
T39E8 021:985 JLINK_Halt()  returns 0x00 (0000ms, 0656ms total)
T39E8 021:985 JLINK_IsHalted()  returns TRUE (0000ms, 0656ms total)
T39E8 021:985 JLINK_IsHalted()  returns TRUE (0000ms, 0656ms total)
T39E8 021:985 JLINK_IsHalted()  returns TRUE (0000ms, 0656ms total)
T39E8 021:985 JLINK_ReadReg(R15 (PC))  returns 0x080024D0 (0000ms, 0656ms total)
T39E8 021:985 JLINK_ReadReg(XPSR)  returns 0x61000000 (0000ms, 0656ms total)
T39E8 021:985 JLINK_SWO_Read(..., Offset = 0x00, NumBytes = 0x400000) - Data:  NumBytesRead = 0x00 (0000ms, 0656ms total)
T39E8 021:987 JLINK_SWO_Control(JLINKARM_SWO_CMD_FLUSH, ...)  returns 0x00 (0000ms, 0656ms total)
T39E8 021:987 JLINK_ClrBPEx(BPHandle = 0x00000005)  returns 0x00 (0000ms, 0656ms total)
T39E8 021:987 JLINK_ReadMemU32(0xE000ED30, 0x0001 Items, ...) -- CPU_ReadMem(4 bytes @ 0xE000ED30) - Data: 03 00 00 00  returns 0x01 (0000ms, 0656ms total)
T39E8 021:987 JLINK_ReadMemU32(0xE0001028, 0x0001 Items, ...) -- CPU_ReadMem(4 bytes @ 0xE0001028) - Data: 00 00 00 00  returns 0x01 (0001ms, 0657ms total)
T39E8 021:988 JLINK_ReadMemU32(0xE0001038, 0x0001 Items, ...) -- CPU_ReadMem(4 bytes @ 0xE0001038) - Data: 00 02 00 00  returns 0x01 (0000ms, 0657ms total)
T39E8 021:988 JLINK_ReadMemU32(0xE0001048, 0x0001 Items, ...) -- CPU_ReadMem(4 bytes @ 0xE0001048) - Data: 00 00 00 00  returns 0x01 (0001ms, 0658ms total)
T39E8 021:989 JLINK_ReadMemU32(0xE0001058, 0x0001 Items, ...) -- CPU_ReadMem(4 bytes @ 0xE0001058) - Data: 00 00 00 00  returns 0x01 (0001ms, 0659ms total)
T39E8 021:990 JLINK_ReadReg(R0)  returns 0x00000001 (0000ms, 0659ms total)
T39E8 021:990 JLINK_ReadReg(R1)  returns 0x20000040 (0000ms, 0659ms total)
T39E8 021:990 JLINK_ReadReg(R2)  returns 0x00000074 (0000ms, 0659ms total)
T39E8 021:990 JLINK_ReadReg(R3)  returns 0x80000000 (0000ms, 0659ms total)
T39E8 021:990 JLINK_ReadReg(R4)  returns 0x45003000 (0000ms, 0659ms total)
T39E8 021:990 JLINK_ReadReg(R5)  returns 0xBF800000 (0000ms, 0659ms total)
T39E8 021:990 JLINK_ReadReg(R6)  returns 0xBF800000 (0000ms, 0659ms total)
T39E8 021:990 JLINK_ReadReg(R7)  returns 0x00000000 (0000ms, 0659ms total)
T39E8 021:990 JLINK_ReadReg(R8)  returns 0x00000000 (0000ms, 0659ms total)
T39E8 021:990 JLINK_ReadReg(R9)  returns 0x20000160 (0000ms, 0659ms total)
T39E8 021:990 JLINK_ReadReg(R10)  returns 0x00000000 (0000ms, 0659ms total)
T39E8 021:990 JLINK_ReadReg(R11)  returns 0x00000000 (0000ms, 0659ms total)
T39E8 021:990 JLINK_ReadReg(R12)  returns 0x43D09F13 (0000ms, 0659ms total)
T39E8 021:990 JLINK_ReadReg(R13 (SP))  returns 0x200004A0 (0000ms, 0659ms total)
T39E8 021:990 JLINK_ReadReg(R14)  returns 0x080011D9 (0000ms, 0659ms total)
T39E8 021:990 JLINK_ReadReg(R15 (PC))  returns 0x080024D0 (0000ms, 0659ms total)
T39E8 021:990 JLINK_ReadReg(XPSR)  returns 0x61000000 (0000ms, 0659ms total)
T39E8 021:990 JLINK_ReadReg(MSP)  returns 0x200004A0 (0000ms, 0659ms total)
T39E8 021:990 JLINK_ReadReg(PSP)  returns 0x20001000 (0000ms, 0659ms total)
T39E8 021:990 JLINK_ReadReg(CFBP)  returns 0x00000000 (0000ms, 0659ms total)
T133C 021:990 JLINK_ReadMem (0x200004AC, 0x0004 Bytes, ...) -- CPU_ReadMem(64 bytes @ 0x20000480) -- Updating C cache (64 bytes @ 0x20000480) -- Read from C cache (4 bytes @ 0x200004AC) - Data: 71 07 00 08  returns 0x00 (0001ms, 0660ms total)
T133C 021:991 JLINK_ReadMemU32(0xE0001004, 0x0001 Items, ...) -- CPU_ReadMem(4 bytes @ 0xE0001004) - Data: 18 5D 2B 01  returns 0x01 (0001ms, 0661ms total)
T133C 021:992 JLINK_ReadMem (0x2000006E, 0x0002 Bytes, ...) -- CPU_ReadMem(64 bytes @ 0x20000040) -- Updating C cache (64 bytes @ 0x20000040) -- Read from C cache (2 bytes @ 0x2000006E) - Data: 01 00  returns 0x00 (0001ms, 0662ms total)
T133C 021:994 JLINK_ReadMem (0x20000048, 0x0004 Bytes, ...) -- Read from C cache (4 bytes @ 0x20000048) - Data: B5 04 26 3B  returns 0x00 (0000ms, 0662ms total)
T133C 021:994 JLINK_ReadMem (0x20000044, 0x0004 Bytes, ...) -- Read from C cache (4 bytes @ 0x20000044) - Data: 27 BA 8B 3A  returns 0x00 (0000ms, 0662ms total)
T133C 021:994 JLINK_ReadMem (0x20000040, 0x0004 Bytes, ...) -- Read from C cache (4 bytes @ 0x20000040) - Data: 32 00 50 BA  returns 0x00 (0000ms, 0662ms total)
T39E8 025:701 JLINK_ReadMemU32(0xE0001004, 0x0001 Items, ...) - Data: 18 5D 2B 01  returns 0x01 (0000ms, 0662ms total)
T39E8 025:701 JLINK_WriteU32(0xE0001004, 0x012B5FFF) -- CPU_WriteMem(4 bytes @ 0xE0001004)  returns 0x00 (0001ms, 0663ms total)
T39E8 025:702 JLINK_WriteU32(0xE0001000, 0x00410A1F)  returns 0x00 (0000ms, 0663ms total)
T39E8 025:702 JLINK_WriteU32(0xE0000E80, 0x0001000F)  returns 0x00 (0000ms, 0663ms total)
T39E8 025:702 JLINK_SWO_Control(JLINKARM_SWO_CMD_GET_NUM_BYTES, ...)  returns 0x00 (0000ms, 0663ms total)
T39E8 025:702 JLINK_Step() -- CPU_ReadMem(64 bytes @ 0x080024C0) -- Updating C cache (64 bytes @ 0x080024C0) -- Read from C cache (2 bytes @ 0x080024D0) -- Simulated  returns 0x00 (0001ms, 0664ms total)
T39E8 025:703 JLINK_ReadReg(R15 (PC))  returns 0x080024D2 (0000ms, 0664ms total)
T39E8 025:703 JLINK_ReadReg(XPSR)  returns 0x61000000 (0000ms, 0664ms total)
T39E8 025:703 JLINK_SetBPEx(Addr = 0x080024D0, Type = 0xFFFFFFF2)  returns 0x00000006 (0000ms, 0664ms total)
T39E8 025:703 JLINK_ReadMemU32(0xE0001004, 0x0001 Items, ...) - Data: FF 5F 2B 01  returns 0x01 (0000ms, 0664ms total)
T39E8 025:703 JLINK_WriteU32(0xE0001004, 0x012B5FFF)  returns 0x00 (0001ms, 0665ms total)
T39E8 025:704 JLINK_WriteU32(0xE0001000, 0x00410A1F)  returns 0x00 (0000ms, 0665ms total)
T39E8 025:704 JLINK_WriteU32(0xE0000E80, 0x0001000F)  returns 0x00 (0000ms, 0665ms total)
T39E8 025:704 JLINK_SWO_Control(JLINKARM_SWO_CMD_GET_NUM_BYTES, ...)  returns 0x00 (0000ms, 0665ms total)
T39E8 025:704 JLINK_Go() -- CPU_WriteMem(4 bytes @ 0xE0002000) -- CPU_WriteMem(4 bytes @ 0xE0001000) -- CPU_ReadMem(4 bytes @ 0xE0001000) -- CPU_WriteMem(4 bytes @ 0xE0000E80) -- CPU_WriteMem(4 bytes @ 0xE0001004) (0006ms, 0671ms total)
T39E8 025:710 JLINK_WriteU32(0xE0001000, 0x00010A1F) -- CPU is running -- CPU_WriteMem(4 bytes @ 0xE0001000)  returns 0x00 (0001ms, 0672ms total)
T39E8 025:811 JLINK_SWO_Read(..., Offset = 0x00, NumBytes = 0x400000) - Data:  NumBytesRead = 0x00 (0000ms, 0672ms total)
T39E8 025:813 JLINK_SWO_Control(JLINKARM_SWO_CMD_FLUSH, ...)  returns 0x00 (0000ms, 0672ms total)
T39E8 025:813 JLINK_IsHalted()  returns TRUE (0003ms, 0675ms total)
T39E8 025:816 JLINK_Halt()  returns 0x00 (0001ms, 0673ms total)
T39E8 025:817 JLINK_IsHalted()  returns TRUE (0000ms, 0673ms total)
T39E8 025:817 JLINK_IsHalted()  returns TRUE (0000ms, 0673ms total)
T39E8 025:817 JLINK_IsHalted()  returns TRUE (0000ms, 0673ms total)
T39E8 025:817 JLINK_ReadReg(R15 (PC))  returns 0x080024D0 (0000ms, 0673ms total)
T39E8 025:817 JLINK_ReadReg(XPSR)  returns 0x61000000 (0000ms, 0673ms total)
T39E8 025:817 JLINK_SWO_Read(..., Offset = 0x00, NumBytes = 0x400000) - Data:  NumBytesRead = 0x00 (0000ms, 0673ms total)
T39E8 025:818 JLINK_SWO_Control(JLINKARM_SWO_CMD_FLUSH, ...)  returns 0x00 (0000ms, 0673ms total)
T39E8 025:818 JLINK_ClrBPEx(BPHandle = 0x00000006)  returns 0x00 (0000ms, 0673ms total)
T39E8 025:818 JLINK_ReadMemU32(0xE000ED30, 0x0001 Items, ...) -- CPU_ReadMem(4 bytes @ 0xE000ED30) - Data: 03 00 00 00  returns 0x01 (0001ms, 0674ms total)
T39E8 025:819 JLINK_ReadMemU32(0xE0001028, 0x0001 Items, ...) -- CPU_ReadMem(4 bytes @ 0xE0001028) - Data: 00 00 00 00  returns 0x01 (0000ms, 0674ms total)
T39E8 025:819 JLINK_ReadMemU32(0xE0001038, 0x0001 Items, ...) -- CPU_ReadMem(4 bytes @ 0xE0001038) - Data: 00 02 00 00  returns 0x01 (0001ms, 0675ms total)
T39E8 025:820 JLINK_ReadMemU32(0xE0001048, 0x0001 Items, ...) -- CPU_ReadMem(4 bytes @ 0xE0001048) - Data: 00 00 00 00  returns 0x01 (0001ms, 0676ms total)
T39E8 025:821 JLINK_ReadMemU32(0xE0001058, 0x0001 Items, ...) -- CPU_ReadMem(4 bytes @ 0xE0001058) - Data: 00 00 00 00  returns 0x01 (0000ms, 0676ms total)
T39E8 025:821 JLINK_ReadReg(R0)  returns 0x00000001 (0000ms, 0676ms total)
T39E8 025:821 JLINK_ReadReg(R1)  returns 0x20000040 (0000ms, 0676ms total)
T39E8 025:821 JLINK_ReadReg(R2)  returns 0x00000074 (0000ms, 0676ms total)
T39E8 025:821 JLINK_ReadReg(R3)  returns 0x80000000 (0000ms, 0676ms total)
T39E8 025:821 JLINK_ReadReg(R4)  returns 0x45000000 (0000ms, 0676ms total)
T39E8 025:821 JLINK_ReadReg(R5)  returns 0xBF800000 (0000ms, 0676ms total)
T39E8 025:821 JLINK_ReadReg(R6)  returns 0x3F800000 (0000ms, 0676ms total)
T39E8 025:821 JLINK_ReadReg(R7)  returns 0x00000000 (0000ms, 0676ms total)
T39E8 025:821 JLINK_ReadReg(R8)  returns 0x00000000 (0000ms, 0676ms total)
T39E8 025:821 JLINK_ReadReg(R9)  returns 0x20000160 (0000ms, 0676ms total)
T39E8 025:821 JLINK_ReadReg(R10)  returns 0x00000000 (0000ms, 0676ms total)
T39E8 025:821 JLINK_ReadReg(R11)  returns 0x00000000 (0000ms, 0676ms total)
T39E8 025:821 JLINK_ReadReg(R12)  returns 0x55625713 (0000ms, 0676ms total)
T39E8 025:821 JLINK_ReadReg(R13 (SP))  returns 0x200004A0 (0001ms, 0677ms total)
T39E8 025:822 JLINK_ReadReg(R14)  returns 0x080011D9 (0000ms, 0677ms total)
T39E8 025:822 JLINK_ReadReg(R15 (PC))  returns 0x080024D0 (0000ms, 0677ms total)
T39E8 025:822 JLINK_ReadReg(XPSR)  returns 0x61000000 (0000ms, 0677ms total)
T39E8 025:822 JLINK_ReadReg(MSP)  returns 0x200004A0 (0000ms, 0677ms total)
T39E8 025:822 JLINK_ReadReg(PSP)  returns 0x20001000 (0000ms, 0677ms total)
T39E8 025:822 JLINK_ReadReg(CFBP)  returns 0x00000000 (0000ms, 0677ms total)
T133C 025:822 JLINK_ReadMem (0x200004AC, 0x0004 Bytes, ...) -- CPU_ReadMem(64 bytes @ 0x20000480) -- Updating C cache (64 bytes @ 0x20000480) -- Read from C cache (4 bytes @ 0x200004AC) - Data: 71 07 00 08  returns 0x00 (0001ms, 0678ms total)
T133C 025:823 JLINK_ReadMemU32(0xE0001004, 0x0001 Items, ...) -- CPU_ReadMem(4 bytes @ 0xE0001004) - Data: 9F 51 2C 01  returns 0x01 (0001ms, 0679ms total)
T133C 025:824 JLINK_ReadMem (0x2000006E, 0x0002 Bytes, ...) -- CPU_ReadMem(64 bytes @ 0x20000040) -- Updating C cache (64 bytes @ 0x20000040) -- Read from C cache (2 bytes @ 0x2000006E) - Data: 01 00  returns 0x00 (0001ms, 0680ms total)
T133C 025:825 JLINK_ReadMem (0x20000048, 0x0004 Bytes, ...) -- Read from C cache (4 bytes @ 0x20000048) - Data: 72 06 28 3B  returns 0x00 (0000ms, 0680ms total)
T133C 025:826 JLINK_ReadMem (0x20000044, 0x0004 Bytes, ...) -- Read from C cache (4 bytes @ 0x20000044) - Data: F6 EA 8F 3A  returns 0x00 (0000ms, 0680ms total)
T133C 025:826 JLINK_ReadMem (0x20000040, 0x0004 Bytes, ...) -- Read from C cache (4 bytes @ 0x20000040) - Data: 0D 00 50 BA  returns 0x00 (0000ms, 0680ms total)
T39E8 028:781 JLINK_ReadMemU32(0xE0001004, 0x0001 Items, ...) - Data: 9F 51 2C 01  returns 0x01 (0001ms, 0681ms total)
T39E8 028:782 JLINK_WriteU32(0xE0001004, 0x012C53FF) -- CPU_WriteMem(4 bytes @ 0xE0001004)  returns 0x00 (0000ms, 0681ms total)
T39E8 028:782 JLINK_WriteU32(0xE0001000, 0x00410A1F)  returns 0x00 (0000ms, 0681ms total)
T39E8 028:782 JLINK_WriteU32(0xE0000E80, 0x0001000F)  returns 0x00 (0000ms, 0681ms total)
T39E8 028:782 JLINK_SWO_Control(JLINKARM_SWO_CMD_GET_NUM_BYTES, ...)  returns 0x00 (0000ms, 0681ms total)
T39E8 028:782 JLINK_Step() -- CPU_ReadMem(64 bytes @ 0x080024C0) -- Updating C cache (64 bytes @ 0x080024C0) -- Read from C cache (2 bytes @ 0x080024D0) -- Simulated  returns 0x00 (0002ms, 0683ms total)
T39E8 028:784 JLINK_ReadReg(R15 (PC))  returns 0x080024D2 (0000ms, 0683ms total)
T39E8 028:784 JLINK_ReadReg(XPSR)  returns 0x61000000 (0000ms, 0683ms total)
T39E8 028:784 JLINK_SetBPEx(Addr = 0x080024D0, Type = 0xFFFFFFF2)  returns 0x00000007 (0000ms, 0683ms total)
T39E8 028:784 JLINK_ReadMemU32(0xE0001004, 0x0001 Items, ...) - Data: FF 53 2C 01  returns 0x01 (0000ms, 0683ms total)
T39E8 028:784 JLINK_WriteU32(0xE0001004, 0x012C53FF)  returns 0x00 (0000ms, 0683ms total)
T39E8 028:784 JLINK_WriteU32(0xE0001000, 0x00410A1F)  returns 0x00 (0000ms, 0683ms total)
T39E8 028:784 JLINK_WriteU32(0xE0000E80, 0x0001000F)  returns 0x00 (0000ms, 0683ms total)
T39E8 028:784 JLINK_SWO_Control(JLINKARM_SWO_CMD_GET_NUM_BYTES, ...)  returns 0x00 (0000ms, 0683ms total)
T39E8 028:784 JLINK_Go() -- CPU_WriteMem(4 bytes @ 0xE0002000) -- CPU_WriteMem(4 bytes @ 0xE0001000) -- CPU_ReadMem(4 bytes @ 0xE0001000) -- CPU_WriteMem(4 bytes @ 0xE0000E80) -- CPU_WriteMem(4 bytes @ 0xE0001004) (0004ms, 0687ms total)
T39E8 028:788 JLINK_WriteU32(0xE0001000, 0x00010A1F) -- CPU is running -- CPU_WriteMem(4 bytes @ 0xE0001000)  returns 0x00 (0000ms, 0687ms total)
T39E8 028:890 JLINK_SWO_Read(..., Offset = 0x00, NumBytes = 0x400000) - Data:  NumBytesRead = 0x00 (0000ms, 0687ms total)
T39E8 028:891 JLINK_SWO_Control(JLINKARM_SWO_CMD_FLUSH, ...)  returns 0x00 (0000ms, 0687ms total)
T39E8 028:891 JLINK_IsHalted()  returns TRUE (0003ms, 0690ms total)
T39E8 028:894 JLINK_Halt()  returns 0x00 (0000ms, 0687ms total)
T39E8 028:894 JLINK_IsHalted()  returns TRUE (0000ms, 0687ms total)
T39E8 028:894 JLINK_IsHalted()  returns TRUE (0000ms, 0687ms total)
T39E8 028:894 JLINK_IsHalted()  returns TRUE (0000ms, 0687ms total)
T39E8 028:894 JLINK_ReadReg(R15 (PC))  returns 0x080024D0 (0000ms, 0687ms total)
T39E8 028:894 JLINK_ReadReg(XPSR)  returns 0x61000000 (0000ms, 0687ms total)
T39E8 028:894 JLINK_SWO_Read(..., Offset = 0x00, NumBytes = 0x400000) - Data:  NumBytesRead = 0x00 (0000ms, 0688ms total)
T39E8 028:897 JLINK_SWO_Control(JLINKARM_SWO_CMD_FLUSH, ...)  returns 0x00 (0000ms, 0688ms total)
T39E8 028:897 JLINK_ClrBPEx(BPHandle = 0x00000007)  returns 0x00 (0000ms, 0688ms total)
T39E8 028:897 JLINK_ReadMemU32(0xE000ED30, 0x0001 Items, ...) -- CPU_ReadMem(4 bytes @ 0xE000ED30) - Data: 03 00 00 00  returns 0x01 (0000ms, 0688ms total)
T39E8 028:897 JLINK_ReadMemU32(0xE0001028, 0x0001 Items, ...) -- CPU_ReadMem(4 bytes @ 0xE0001028) - Data: 00 00 00 00  returns 0x01 (0001ms, 0689ms total)
T39E8 028:898 JLINK_ReadMemU32(0xE0001038, 0x0001 Items, ...) -- CPU_ReadMem(4 bytes @ 0xE0001038) - Data: 00 02 00 00  returns 0x01 (0000ms, 0689ms total)
T39E8 028:898 JLINK_ReadMemU32(0xE0001048, 0x0001 Items, ...) -- CPU_ReadMem(4 bytes @ 0xE0001048) - Data: 00 00 00 00  returns 0x01 (0001ms, 0690ms total)
T39E8 028:899 JLINK_ReadMemU32(0xE0001058, 0x0001 Items, ...) -- CPU_ReadMem(4 bytes @ 0xE0001058) - Data: 00 00 00 00  returns 0x01 (0000ms, 0690ms total)
T39E8 028:899 JLINK_ReadReg(R0)  returns 0x00000001 (0000ms, 0690ms total)
T39E8 028:899 JLINK_ReadReg(R1)  returns 0x20000040 (0000ms, 0690ms total)
T39E8 028:899 JLINK_ReadReg(R2)  returns 0x00000074 (0000ms, 0690ms total)
T39E8 028:899 JLINK_ReadReg(R3)  returns 0x80000000 (0001ms, 0691ms total)
T39E8 028:900 JLINK_ReadReg(R4)  returns 0x44FFE000 (0000ms, 0691ms total)
T39E8 028:900 JLINK_ReadReg(R5)  returns 0x00000000 (0000ms, 0691ms total)
T39E8 028:900 JLINK_ReadReg(R6)  returns 0x3F800000 (0000ms, 0691ms total)
T39E8 028:900 JLINK_ReadReg(R7)  returns 0x00000000 (0000ms, 0691ms total)
T39E8 028:900 JLINK_ReadReg(R8)  returns 0x00000000 (0000ms, 0691ms total)
T39E8 028:900 JLINK_ReadReg(R9)  returns 0x20000160 (0000ms, 0691ms total)
T39E8 028:900 JLINK_ReadReg(R10)  returns 0x00000000 (0000ms, 0691ms total)
T39E8 028:900 JLINK_ReadReg(R11)  returns 0x00000000 (0000ms, 0691ms total)
T39E8 028:900 JLINK_ReadReg(R12)  returns 0x2ABF7E77 (0000ms, 0691ms total)
T39E8 028:900 JLINK_ReadReg(R13 (SP))  returns 0x200004A0 (0000ms, 0691ms total)
T39E8 028:900 JLINK_ReadReg(R14)  returns 0x080011D9 (0000ms, 0691ms total)
T39E8 028:900 JLINK_ReadReg(R15 (PC))  returns 0x080024D0 (0000ms, 0691ms total)
T39E8 028:900 JLINK_ReadReg(XPSR)  returns 0x61000000 (0000ms, 0691ms total)
